T384C 27006:976 SEGGER J-Link V6.46 Log File (0001ms, 20526ms total)
T384C 27006:976 DLL Compiled: May 23 2019 17:49:56 (0001ms, 20526ms total)
T384C 27006:976 Logging started @ 2019-12-08 16:13 (0001ms, 20526ms total)
T384C 27006:977 JLINK_SetWarnOutHandler(...) (0000ms, 20526ms total)
T384C 27006:977 JLINK_OpenEx(...)
Firmware: J-Link V9 compiled May 17 2019 09:50:41
Hardware: V9.70
S/N: 59700618
Feature(s): RDI, FlashBP, FlashDL, JFlash, GDB
TELNET listener socket opened on port 19021WEBSRV 
Starting webserver (0054ms, 20580ms total)
T384C 27006:977 WEBSRV Webserver running on local port 19080 (0055ms, 20581ms total)
T384C 27006:977   returns O.K. (0055ms, 20581ms total)
T384C 27007:032 JLINK_GetEmuCaps()  returns 0xB9FF7BBF (0000ms, 20581ms total)
T384C 27007:033 JLINK_TIF_GetAvailable(...) (0000ms, 20581ms total)
T384C 27007:033 JLINK_SetErrorOutHandler(...) (0000ms, 20581ms total)
T384C 27007:033 JLINK_ExecCommand("ProjectFile = "C:\Users\24230\Desktop\Learn\TDT-HERO\project\JLinkSettings.ini"", ...).   returns 0x00 (0006ms, 20587ms total)
T384C 27007:039 JLINK_ExecCommand("Device = STM32F405RG", ...). Device "STM32F405RG" selected.  returns 0x00 (0005ms, 20592ms total)
T384C 27007:044 JLINK_ExecCommand("DisableConnectionTimeout", ...).   returns 0x01 (0000ms, 20592ms total)
T384C 27007:044 JLINK_GetHardwareVersion()  returns 0x17AE8 (0000ms, 20592ms total)
T384C 27007:044 JLINK_GetDLLVersion()  returns 64600 (0000ms, 20592ms total)
T384C 27007:044 JLINK_GetFirmwareString(...) (0000ms, 20592ms total)
T384C 27007:044 JLINK_GetDLLVersion()  returns 64600 (0000ms, 20592ms total)
T384C 27007:044 JLINK_GetCompileDateTime() (0000ms, 20592ms total)
T384C 27007:044 JLINK_GetFirmwareString(...) (0000ms, 20592ms total)
T384C 27007:044 JLINK_GetHardwareVersion()  returns 0x17AE8 (0000ms, 20592ms total)
T384C 27007:044 JLINK_TIF_Select(JLINKARM_TIF_SWD)  returns 0x00 (0001ms, 20593ms total)
T384C 27007:045 JLINK_SetSpeed(5000) (0001ms, 20594ms total)
T384C 27007:046 JLINK_GetId() >0x10B TIF>Found SW-DP with ID 0x2BA01477 >0x0D TIF> >0x28 TIF> >0x0D TIF> >0x28 TIF> >0x0D TIF> >0x28 TIF> >0x0D TIF> >0x28 TIF> >0x0D TIF> >0x21 TIF> >0x0D TIF> >0x28 TIF> >0x0D TIF> >0x28 TIF> >0x0D TIF> >0x28 TIF> >0x0D TIF> >0x21 TIF> >0x0D TIF> >0x21 TIF> >0x0D TIF> >0x28 TIF> >0x0D TIF> >0x21 TIF> >0x0D TIF> >0x21 TIF> >0x0D TIF> >0x28 TIF> >0x0D TIF> >0x21 TIF> >0x0D TIF> >0x21 TIF> >0x0D TIF> >0x28 TIF> >0x0D TIF> >0x21 TIF> >0x0D TIF> >0x21 TIF> >0x0D TIF>
 >0x28 TIF> >0x0D TIF> >0x21 TIF> >0x0D TIF> >0x21 TIF> >0x0D TIF> >0x28 TIF> >0x0D TIF> >0x21 TIF> >0x0D TIF> >0x21 TIF> >0x10B TIF>Found SW-DP with ID 0x2BA01477 >0x0D TIF> >0x28 TIF> >0x0D TIF> >0x28 TIF> >0x0D TIF> >0x28 TIF> >0x0D TIF> >0x28 TIF> >0x0D TIF> >0x21 TIF> >0x0D TIF> >0x28 TIF>Scanning AP map to find all available APs >0x0D TIF> >0x28 TIF> >0x0D TIF> >0x21 TIF> >0x0D TIF> >0x21 TIF> >0x0D TIF> >0x28 TIF> >0x0D TIF> >0x21 TIF> >0x0D TIF> >0x21 TIF>
AP[1]: Stopped AP scan as end of AP map has been reachedAP[0]: AHB-AP (IDR: 0x24770011)Iterating through AP map to find AHB-AP to use >0x42 TIF> >0x28 TIF> >0x0D TIF> >0x28 TIF> >0x0D TIF> >0x21 TIF> >0x0D TIF> >0x21 TIF> >0x42 TIF> >0x28 TIF> >0x0D TIF> >0x28 TIF> >0x0D TIF> >0x28 TIF> >0x0D TIF> >0x21 TIF> >0x0D TIF> >0x21 TIF>AP[0]: Core foundAP[0]: AHB-AP ROM base: 0xE00FF000 >0x0D TIF> >0x28 TIF> >0x0D TIF> >0x28 TIF> >0x0D TIF> >0x28 TIF> >0x0D TIF> >0x21 TIF> >0x0D TIF> >0x21 TIF>
CPUID register: 0x410FC241. Implementer code: 0x41 (ARM)Found Cortex-M4 r0p1, Little endian. -- Max. mem block: 0x00010F28 -- CPU_ReadMem(4 bytes @ 0xE000EDF0) -- CPU_WriteMem(4 bytes @ 0xE000EDF0) -- CPU_ReadMem(4 bytes @ 0xE0002000)FPUnit: 6 code (BP) slots and 2 literal slots -- CPU_ReadMem(4 bytes @ 0xE000EDFC) -- CPU_WriteMem(4 bytes @ 0xE000EDFC) -- CPU_ReadMem(4 bytes @ 0xE0001000) -- CPU_WriteMem(4 bytes @ 0xE0001000) -- CPU_ReadMem(4 bytes @ 0xE000ED88) -- CPU_WriteMem(4 bytes @ 0xE000ED88)
 -- CPU_ReadMem(4 bytes @ 0xE000ED88) -- CPU_WriteMem(4 bytes @ 0xE000ED88)CoreSight components:ROMTbl[0] @ E00FF000 -- CPU_ReadMem(16 bytes @ 0xE00FF000) -- CPU_ReadMem(16 bytes @ 0xE000EFF0) -- CPU_ReadMem(16 bytes @ 0xE000EFE0)ROMTbl[0][0]: E000E000, CID: B105E00D, PID: 000BB00C SCS-M7 -- CPU_ReadMem(16 bytes @ 0xE0001FF0) -- CPU_ReadMem(16 bytes @ 0xE0001FE0)ROMTbl[0][1]: E0001000, CID: B105E00D, PID: 003BB002 DWT -- CPU_ReadMem(16 bytes @ 0xE0002FF0) -- CPU_ReadMem(16 bytes @ 0xE0002FE0)
ROMTbl[0][2]: E0002000, CID: B105E00D, PID: 002BB003 FPB -- CPU_ReadMem(16 bytes @ 0xE0000FF0) -- CPU_ReadMem(16 bytes @ 0xE0000FE0)ROMTbl[0][3]: E0000000, CID: B105E00D, PID: 003BB001 ITM -- CPU_ReadMem(16 bytes @ 0xE00FF010) -- CPU_ReadMem(16 bytes @ 0xE0040FF0) -- CPU_ReadMem(16 bytes @ 0xE0040FE0)ROMTbl[0][4]: E0040000, CID: B105900D, PID: 000BB9A1 TPIU -- CPU_ReadMem(16 bytes @ 0xE0041FF0) -- CPU_ReadMem(16 bytes @ 0xE0041FE0)ROMTbl[0][5]: E0041000, CID: B105900D, PID: 000BB925 ETM >0x0D TIF>
 >0x21 TIF>  returns 0x2BA01477 (0143ms, 20737ms total)
T384C 27007:189 JLINK_GetDLLVersion()  returns 64600 (0000ms, 20737ms total)
T384C 27007:189 JLINK_CORE_GetFound()  returns 0xE0000FF (0000ms, 20737ms total)
T384C 27007:189 JLINK_GetDebugInfo(0x100 = JLINKARM_ROM_TABLE_ADDR_INDEX) -- Value=0xE00FF000  returns 0x00 (0001ms, 20738ms total)
T384C 27007:190 JLINK_GetDebugInfo(0x100 = JLINKARM_ROM_TABLE_ADDR_INDEX) -- Value=0xE00FF000  returns 0x00 (0000ms, 20738ms total)
T384C 27007:190 JLINK_GetDebugInfo(0x101 = JLINKARM_DEBUG_INFO_ETM_ADDR_INDEX) -- Value=0xE0041000  returns 0x00 (0000ms, 20738ms total)
T384C 27007:190 JLINK_ReadMemEx(0xE0041FD0, 0x0020 Bytes, ..., Flags = 0x02000004) -- CPU_ReadMem(32 bytes @ 0xE0041FD0) - Data: 04 00 00 00 00 00 00 00 00 00 00 00 00 00 00 00 ...  returns 0x20 (0000ms, 20738ms total)
T384C 27007:191 JLINK_GetDebugInfo(0x102 = JLINKARM_DEBUG_INFO_MTB_ADDR_INDEX) -- Value=0x00000000  returns 0x00 (0000ms, 20739ms total)
T384C 27007:191 JLINK_GetDebugInfo(0x103 = JLINKARM_DEBUG_INFO_TPIU_ADDR_INDEX) -- Value=0xE0040000  returns 0x00 (0000ms, 20739ms total)
T384C 27007:191 JLINK_GetDebugInfo(0x104 = JLINKARM_DEBUG_INFO_ITM_ADDR_INDEX) -- Value=0xE0000000  returns 0x00 (0000ms, 20739ms total)
T384C 27007:191 JLINK_GetDebugInfo(0x105 = JLINKARM_DEBUG_INFO_DWT_ADDR_INDEX) -- Value=0xE0001000  returns 0x00 (0000ms, 20739ms total)
T384C 27007:191 JLINK_GetDebugInfo(0x106 = JLINKARM_DEBUG_INFO_FPB_ADDR_INDEX) -- Value=0xE0002000  returns 0x00 (0000ms, 20739ms total)
T384C 27007:191 JLINK_GetDebugInfo(0x107 = JLINKARM_DEBUG_INFO_NVIC_ADDR_INDEX) -- Value=0xE000E000  returns 0x00 (0000ms, 20739ms total)
T384C 27007:191 JLINK_GetDebugInfo(0x10C = JLINKARM_DEBUG_INFO_DBG_ADDR_INDEX) -- Value=0xE000EDF0  returns 0x00 (0000ms, 20739ms total)
T384C 27007:191 JLINK_GetDebugInfo(0x01 = Unknown) -- Value=0x00000001  returns 0x00 (0000ms, 20739ms total)
T384C 27007:191 JLINK_ReadMemU32(0xE000ED00, 0x0001 Items, ...) -- CPU_ReadMem(4 bytes @ 0xE000ED00) - Data: 41 C2 0F 41  returns 1 (0001ms, 20740ms total)
T384C 27007:192 JLINK_GetDebugInfo(0x10F = JLINKARM_DEBUG_INFO_HAS_CORTEX_M_SECURITY_EXT_INDEX) -- Value=0x00000000  returns 0x00 (0000ms, 20740ms total)
T384C 27007:192 JLINK_SetResetType(JLINKARM_CM3_RESET_TYPE_NORMAL)  returns JLINKARM_CM3_RESET_TYPE_NORMAL (0000ms, 20740ms total)
T384C 27007:192 JLINK_Reset() -- CPU is running -- CPU_WriteMem(4 bytes @ 0xE000EDF0) -- CPU is running -- CPU_WriteMem(4 bytes @ 0xE000EDFC)Reset: Halt core after reset via DEMCR.VC_CORERESET. >0x35 TIF>Reset: Reset device via AIRCR.SYSRESETREQ. -- CPU is running -- CPU_WriteMem(4 bytes @ 0xE000ED0C) >0x0D TIF> >0x28 TIF> -- CPU_ReadMem(4 bytes @ 0xE000EDF0) -- CPU_ReadMem(4 bytes @ 0xE000EDF0) -- CPU is running -- CPU_WriteMem(4 bytes @ 0xE000EDF0) -- CPU is running
 -- CPU_WriteMem(4 bytes @ 0xE000EDFC) -- CPU_ReadMem(4 bytes @ 0xE000EDF0) -- CPU_WriteMem(4 bytes @ 0xE0002000) -- CPU_ReadMem(4 bytes @ 0xE000EDFC) -- CPU_ReadMem(4 bytes @ 0xE0001000) (0067ms, 20807ms total)
T384C 27007:259 JLINK_ReadReg(R15 (PC))  returns 0x080002E0 (0000ms, 20807ms total)
T384C 27007:259 JLINK_ReadReg(XPSR)  returns 0x01000000 (0000ms, 20807ms total)
T384C 27007:259 JLINK_Halt()  returns 0x00 (0000ms, 20807ms total)
T384C 27007:259 JLINK_ReadMemU32(0xE000EDF0, 0x0001 Items, ...) -- CPU_ReadMem(4 bytes @ 0xE000EDF0) - Data: 03 00 03 00  returns 1 (0000ms, 20807ms total)
T384C 27007:260 JLINK_WriteU32(0xE000EDF0, 0xA05F0003) -- CPU_WriteMem(4 bytes @ 0xE000EDF0)  returns 0 (0000ms, 20807ms total)
T384C 27007:260 JLINK_WriteU32(0xE000EDFC, 0x01000000) -- CPU_WriteMem(4 bytes @ 0xE000EDFC)  returns 0 (0001ms, 20808ms total)
T384C 27007:261 JLINK_GetHWStatus(...)  returns 0x00 (0001ms, 20809ms total)
T384C 27007:262 JLINK_GetNumBPUnits(Type = 0xFFFFFF00)  returns 0x06 (0000ms, 20809ms total)
T384C 27007:262 JLINK_GetNumBPUnits(Type = 0xF0)  returns 0x2000 (0000ms, 20809ms total)
T384C 27007:262 JLINK_GetNumWPUnits()  returns 0x04 (0000ms, 20809ms total)
T384C 27007:262 JLINK_GetSpeed()  returns 0xFA0 (0000ms, 20809ms total)
T384C 27007:262 JLINK_ReadMemU32(0xE000E004, 0x0001 Items, ...) -- CPU_ReadMem(4 bytes @ 0xE000E004) - Data: 02 00 00 00  returns 1 (0001ms, 20810ms total)
T384C 27007:263 JLINK_ReadMemU32(0xE000E004, 0x0001 Items, ...) -- CPU_ReadMem(4 bytes @ 0xE000E004) - Data: 02 00 00 00  returns 1 (0000ms, 20810ms total)
T384C 27007:263 JLINK_WriteMemEx(0xE0001000, 0x001C Bytes, ..., Flags = 0x02000004) - Data: 01 00 00 00 00 00 00 00 00 00 00 00 00 00 00 00 ... -- CPU_WriteMem(28 bytes @ 0xE0001000)  returns 0x1C (0002ms, 20812ms total)
T384C 27007:265 JLINK_ReadReg(R15 (PC))  returns 0x080002E0 (0001ms, 20813ms total)
T384C 27007:266 JLINK_ReadReg(XPSR)  returns 0x01000000 (0000ms, 20813ms total)
T384C 27007:281 JLINK_ReadMemEx(0xE0001004, 0x0004 Bytes, ..., Flags = 0x02000000) - Data: 00 00 00 00  returns 0x04 (0000ms, 20813ms total)
T384C 27007:306 JLINK_ReadMemEx(0x08000000, 0x1000 Bytes, ..., Flags = 0x02000000) -- CPU_ReadMem(4096 bytes @ 0x08000000) -- Updating C cache (4096 bytes @ 0x08000000) -- Read from C cache (4096 bytes @ 0x08000000) - Data: 80 0E 00 20 E1 02 00 08 A9 01 00 08 AB 01 00 08 ...  returns 0x1000 (0017ms, 20830ms total)
T384C 27007:325 JLINK_ReadMemEx(0x08001000, 0x1000 Bytes, ..., Flags = 0x02000000) -- CPU_ReadMem(4096 bytes @ 0x08001000) -- Updating C cache (4096 bytes @ 0x08001000) -- Read from C cache (4096 bytes @ 0x08001000) - Data: 70 B5 02 46 00 20 00 24 00 25 20 4E B2 42 02 D2 ...  returns 0x1000 (0017ms, 20847ms total)
T384C 27007:343 JLINK_ReadMemEx(0x08002000, 0x1000 Bytes, ..., Flags = 0x02000000) -- CPU_ReadMem(4096 bytes @ 0x08002000) -- Updating C cache (4096 bytes @ 0x08002000) -- Read from C cache (4096 bytes @ 0x08002000) - Data: 02 A9 AC 48 FF F7 B8 F8 40 20 8D F8 04 00 03 20 ...  returns 0x1000 (0017ms, 20864ms total)
T384C 27007:362 JLINK_ReadMemEx(0x08003000, 0x1000 Bytes, ..., Flags = 0x02000000) -- CPU_ReadMem(4096 bytes @ 0x08003000) -- Updating C cache (4096 bytes @ 0x08003000) -- Read from C cache (4096 bytes @ 0x08003000) - Data: 08 70 2F 48 90 F8 2E 00 48 B9 2D 48 90 F8 2B 00 ...  returns 0x1000 (0017ms, 20881ms total)
T384C 27007:381 JLINK_ReadMemEx(0x08004000, 0x1000 Bytes, ..., Flags = 0x02000000) -- CPU_ReadMem(4096 bytes @ 0x08004000) -- Updating C cache (4096 bytes @ 0x08004000) -- Read from C cache (4096 bytes @ 0x08004000) - Data: B0 F9 02 00 00 EE 10 0A B8 EE C0 0A A4 48 D0 ED ...  returns 0x1000 (0018ms, 20899ms total)
T384C 27007:400 JLINK_ReadMemEx(0x08005000, 0x1000 Bytes, ..., Flags = 0x02000000) -- CPU_ReadMem(4096 bytes @ 0x08005000) -- Updating C cache (4096 bytes @ 0x08005000) -- Read from C cache (4096 bytes @ 0x08005000) - Data: 04 8B 9F ED 3C 0A B0 EE 40 8A 9F ED 3A 0A F0 EE ...  returns 0x1000 (0018ms, 20917ms total)
T384C 27007:419 JLINK_ReadMemEx(0x08006000, 0x0E10 Bytes, ..., Flags = 0x02000000) -- CPU_ReadMem(3648 bytes @ 0x08006000) -- Updating C cache (3648 bytes @ 0x08006000) -- Read from C cache (3600 bytes @ 0x08006000) - Data: 53 EC 1E 2B FF F7 0A FC 41 EC 10 0B 5F E0 8D ED ...  returns 0xE10 (0016ms, 20933ms total)
T384C 27007:496 JLINK_SetResetType(JLINKARM_CM3_RESET_TYPE_NORMAL)  returns JLINKARM_CM3_RESET_TYPE_NORMAL (0000ms, 20933ms total)
T384C 27007:496 JLINK_Reset() -- CPU_WriteMem(4 bytes @ 0xE000EDF0) -- CPU_WriteMem(4 bytes @ 0xE000EDFC)Reset: Halt core after reset via DEMCR.VC_CORERESET. >0x35 TIF>Reset: Reset device via AIRCR.SYSRESETREQ. -- CPU_WriteMem(4 bytes @ 0xE000ED0C) >0x0D TIF> >0x28 TIF> -- CPU_ReadMem(4 bytes @ 0xE000EDF0) -- CPU_ReadMem(4 bytes @ 0xE000EDF0) -- CPU_WriteMem(4 bytes @ 0xE000EDF0) -- CPU_WriteMem(4 bytes @ 0xE000EDFC) -- CPU_ReadMem(4 bytes @ 0xE000EDF0) -- CPU_WriteMem(4 bytes @ 0xE0002000)
 -- CPU_ReadMem(4 bytes @ 0xE000EDFC) -- CPU_ReadMem(4 bytes @ 0xE0001000) (0067ms, 21000ms total)
T384C 27007:563 JLINK_ReadReg(R15 (PC))  returns 0x080002E0 (0000ms, 21000ms total)
T384C 27007:563 JLINK_ReadReg(XPSR)  returns 0x01000000 (0000ms, 21000ms total)
T384C 27007:565 JLINK_ReadMemEx(0x080002E0, 0x003C Bytes, ..., Flags = 0x02000000) -- CPU_ReadMem(128 bytes @ 0x080002C0) -- Updating C cache (128 bytes @ 0x080002C0) -- Read from C cache (60 bytes @ 0x080002E0) - Data: 06 48 80 47 06 48 00 47 FE E7 FE E7 FE E7 FE E7 ...  returns 0x3C (0001ms, 21001ms total)
T384C 27007:566 JLINK_ReadMemEx(0x080002E0, 0x0002 Bytes, ..., Flags = 0x02000000) -- Read from C cache (2 bytes @ 0x080002E0) - Data: 06 48  returns 0x02 (0000ms, 21001ms total)
T384C 27007:567 JLINK_ReadMemEx(0x080002E2, 0x0002 Bytes, ..., Flags = 0x02000000) -- Read from C cache (2 bytes @ 0x080002E2) - Data: 80 47  returns 0x02 (0000ms, 21001ms total)
T384C 27007:567 JLINK_ReadMemEx(0x080002E2, 0x0002 Bytes, ..., Flags = 0x02000000) -- Read from C cache (2 bytes @ 0x080002E2) - Data: 80 47  returns 0x02 (0000ms, 21001ms total)
T384C 27007:567 JLINK_ReadMemEx(0x080002E4, 0x003C Bytes, ..., Flags = 0x02000000) -- Read from C cache (60 bytes @ 0x080002E4) - Data: 06 48 00 47 FE E7 FE E7 FE E7 FE E7 FE E7 FE E7 ...  returns 0x3C (0000ms, 21001ms total)
T384C 27007:567 JLINK_ReadMemEx(0x080002E4, 0x0002 Bytes, ..., Flags = 0x02000000) -- Read from C cache (2 bytes @ 0x080002E4) - Data: 06 48  returns 0x02 (0000ms, 21001ms total)
T384C 27011:025 JLINK_ReadReg(R0)  returns 0x00000000 (0000ms, 21001ms total)
T384C 27011:025 JLINK_ReadReg(R1)  returns 0x00000000 (0000ms, 21001ms total)
T384C 27011:025 JLINK_ReadReg(R2)  returns 0x00000000 (0000ms, 21001ms total)
T384C 27011:025 JLINK_ReadReg(R3)  returns 0x00000000 (0000ms, 21001ms total)
T384C 27011:025 JLINK_ReadReg(R4)  returns 0x00000000 (0000ms, 21001ms total)
T384C 27011:025 JLINK_ReadReg(R5)  returns 0x00000000 (0000ms, 21001ms total)
T384C 27011:025 JLINK_ReadReg(R6)  returns 0x00000000 (0000ms, 21001ms total)
T384C 27011:025 JLINK_ReadReg(R7)  returns 0x00000000 (0000ms, 21001ms total)
T384C 27011:025 JLINK_ReadReg(R8)  returns 0x00000000 (0000ms, 21001ms total)
T384C 27011:025 JLINK_ReadReg(R9)  returns 0x00000000 (0000ms, 21001ms total)
T384C 27011:025 JLINK_ReadReg(R10)  returns 0x00000000 (0000ms, 21001ms total)
T384C 27011:025 JLINK_ReadReg(R11)  returns 0x00000000 (0001ms, 21002ms total)
T384C 27011:026 JLINK_ReadReg(R12)  returns 0x00000000 (0000ms, 21002ms total)
T384C 27011:026 JLINK_ReadReg(R13 (SP))  returns 0x20000E80 (0000ms, 21002ms total)
T384C 27011:026 JLINK_ReadReg(R14)  returns 0xFFFFFFFF (0000ms, 21002ms total)
T384C 27011:026 JLINK_ReadReg(R15 (PC))  returns 0x080002E0 (0000ms, 21002ms total)
T384C 27011:026 JLINK_ReadReg(XPSR)  returns 0x01000000 (0000ms, 21002ms total)
T384C 27011:026 JLINK_ReadReg(MSP)  returns 0x20000E80 (0000ms, 21002ms total)
T384C 27011:026 JLINK_ReadReg(PSP)  returns 0x00000000 (0000ms, 21002ms total)
T384C 27011:026 JLINK_ReadReg(CFBP)  returns 0x00000000 (0000ms, 21002ms total)
T384C 27011:026 JLINK_ReadReg(FPSCR)  returns 0x00000000 (0003ms, 21005ms total)
T384C 27011:029 JLINK_ReadReg(FPS0)  returns 0x00000000 (0001ms, 21006ms total)
T384C 27011:030 JLINK_ReadReg(FPS1)  returns 0x00000000 (0000ms, 21006ms total)
T384C 27011:030 JLINK_ReadReg(FPS2)  returns 0x00000000 (0000ms, 21006ms total)
T384C 27011:030 JLINK_ReadReg(FPS3)  returns 0x00000000 (0000ms, 21006ms total)
T384C 27011:030 JLINK_ReadReg(FPS4)  returns 0x00000000 (0000ms, 21006ms total)
T384C 27011:030 JLINK_ReadReg(FPS5)  returns 0x00000000 (0000ms, 21006ms total)
T384C 27011:030 JLINK_ReadReg(FPS6)  returns 0x00000000 (0000ms, 21006ms total)
T384C 27011:030 JLINK_ReadReg(FPS7)  returns 0x00000000 (0000ms, 21006ms total)
T384C 27011:030 JLINK_ReadReg(FPS8)  returns 0x00000000 (0000ms, 21006ms total)
T384C 27011:030 JLINK_ReadReg(FPS9)  returns 0x00000000 (0000ms, 21006ms total)
T384C 27011:030 JLINK_ReadReg(FPS10)  returns 0x00000000 (0000ms, 21006ms total)
T384C 27011:030 JLINK_ReadReg(FPS11)  returns 0x00000000 (0000ms, 21006ms total)
T384C 27011:030 JLINK_ReadReg(FPS12)  returns 0x00000000 (0001ms, 21007ms total)
T384C 27011:031 JLINK_ReadReg(FPS13)  returns 0x00000000 (0000ms, 21007ms total)
T384C 27011:031 JLINK_ReadReg(FPS14)  returns 0x00000000 (0000ms, 21007ms total)
T384C 27011:031 JLINK_ReadReg(FPS15)  returns 0x00000000 (0000ms, 21007ms total)
T384C 27011:031 JLINK_ReadReg(FPS16)  returns 0x00000000 (0000ms, 21007ms total)
T384C 27011:031 JLINK_ReadReg(FPS17)  returns 0x00000000 (0000ms, 21007ms total)
T384C 27011:031 JLINK_ReadReg(FPS18)  returns 0x00000000 (0000ms, 21007ms total)
T384C 27011:031 JLINK_ReadReg(FPS19)  returns 0x00000000 (0000ms, 21007ms total)
T384C 27011:031 JLINK_ReadReg(FPS20)  returns 0x00000000 (0000ms, 21007ms total)
T384C 27011:031 JLINK_ReadReg(FPS21)  returns 0x00000000 (0000ms, 21007ms total)
T384C 27011:031 JLINK_ReadReg(FPS22)  returns 0x00000000 (0000ms, 21007ms total)
T384C 27011:031 JLINK_ReadReg(FPS23)  returns 0x00000000 (0000ms, 21007ms total)
T384C 27011:031 JLINK_ReadReg(FPS24)  returns 0x00000000 (0000ms, 21007ms total)
T384C 27011:031 JLINK_ReadReg(FPS25)  returns 0x00000000 (0001ms, 21008ms total)
T384C 27011:032 JLINK_ReadReg(FPS26)  returns 0x00000000 (0000ms, 21008ms total)
T384C 27011:032 JLINK_ReadReg(FPS27)  returns 0x00000000 (0000ms, 21008ms total)
T384C 27011:032 JLINK_ReadReg(FPS28)  returns 0x00000000 (0000ms, 21008ms total)
T384C 27011:032 JLINK_ReadReg(FPS29)  returns 0x00000000 (0000ms, 21008ms total)
T384C 27011:032 JLINK_ReadReg(FPS30)  returns 0x00000000 (0000ms, 21008ms total)
T384C 27011:032 JLINK_ReadReg(FPS31)  returns 0x00000000 (0000ms, 21008ms total)
T384C 27011:137 JLINK_ReadMemEx(0x200005A2, 0x0002 Bytes, ..., Flags = 0x02000000) -- CPU_ReadMem(64 bytes @ 0x20000580) -- Updating C cache (64 bytes @ 0x20000580) -- Read from C cache (2 bytes @ 0x200005A2) - Data: 00 00  returns 0x02 (0001ms, 21009ms total)
T384C 27011:138 JLINK_ReadMemEx(0x200005A2, 0x0002 Bytes, ..., Flags = 0x02000000) -- Read from C cache (2 bytes @ 0x200005A2) - Data: 00 00  returns 0x02 (0000ms, 21009ms total)
T384C 27011:138 JLINK_ReadMemEx(0x200005A2, 0x0002 Bytes, ..., Flags = 0x02000000) -- Read from C cache (2 bytes @ 0x200005A2) - Data: 00 00  returns 0x02 (0000ms, 21009ms total)
T384C 27011:205 JLINK_ReadMemEx(0x2000002A, 0x0002 Bytes, ..., Flags = 0x02000000) -- CPU_ReadMem(64 bytes @ 0x20000000) -- Updating C cache (64 bytes @ 0x20000000) -- Read from C cache (2 bytes @ 0x2000002A) - Data: 00 00  returns 0x02 (0001ms, 21010ms total)
T384C 27011:206 JLINK_ReadMemEx(0x2000002A, 0x0002 Bytes, ..., Flags = 0x02000000) -- Read from C cache (2 bytes @ 0x2000002A) - Data: 00 00  returns 0x02 (0000ms, 21010ms total)
T384C 27011:206 JLINK_ReadMemEx(0x2000002A, 0x0002 Bytes, ..., Flags = 0x02000000) -- Read from C cache (2 bytes @ 0x2000002A) - Data: 00 00  returns 0x02 (0000ms, 21010ms total)
T384C 27011:331 JLINK_ReadMemEx(0x20000080, 0x0004 Bytes, ..., Flags = 0x02000000) -- CPU_ReadMem(64 bytes @ 0x20000080) -- Updating C cache (64 bytes @ 0x20000080) -- Read from C cache (4 bytes @ 0x20000080) - Data: CD CC CC 3D  returns 0x04 (0001ms, 21011ms total)
T384C 27011:332 JLINK_ReadMemEx(0x20000080, 0x0004 Bytes, ..., Flags = 0x02000000) -- Read from C cache (4 bytes @ 0x20000080) - Data: CD CC CC 3D  returns 0x04 (0000ms, 21011ms total)
T384C 27011:332 JLINK_ReadMemEx(0x20000080, 0x0004 Bytes, ..., Flags = 0x02000000) -- Read from C cache (4 bytes @ 0x20000080) - Data: CD CC CC 3D  returns 0x04 (0000ms, 21011ms total)
T384C 27011:344 JLINK_ReadMemEx(0x2000007C, 0x0004 Bytes, ..., Flags = 0x02000000) -- CPU_ReadMem(64 bytes @ 0x20000040) -- Updating C cache (64 bytes @ 0x20000040) -- Read from C cache (4 bytes @ 0x2000007C) - Data: 9A 99 19 3F  returns 0x04 (0001ms, 21012ms total)
T384C 27011:345 JLINK_ReadMemEx(0x2000007C, 0x0004 Bytes, ..., Flags = 0x02000000) -- Read from C cache (4 bytes @ 0x2000007C) - Data: 9A 99 19 3F  returns 0x04 (0000ms, 21012ms total)
T384C 27011:345 JLINK_ReadMemEx(0x2000007C, 0x0004 Bytes, ..., Flags = 0x02000000) -- Read from C cache (4 bytes @ 0x2000007C) - Data: 9A 99 19 3F  returns 0x04 (0000ms, 21012ms total)
T1D88 27011:753 JLINK_ReadMemEx(0x080002E0, 0x0002 Bytes, ..., Flags = 0x02000000) -- Read from C cache (2 bytes @ 0x080002E0) - Data: 06 48  returns 0x02 (0001ms, 21013ms total)
T1D88 27011:754 JLINK_SetBPEx(Addr = 0x0800019C, Type = 0xFFFFFFF2)  returns 0x00000001 (0000ms, 21013ms total)
T1D88 27011:754 JLINK_Go() -- CPU_WriteMem(4 bytes @ 0xE0002000) -- CPU_ReadMem(4 bytes @ 0xE0001000) -- CPU_WriteMem(4 bytes @ 0xE0002008) -- CPU_WriteMem(4 bytes @ 0xE000200C) -- CPU_WriteMem(4 bytes @ 0xE0002010) -- CPU_WriteMem(4 bytes @ 0xE0002014) -- CPU_WriteMem(4 bytes @ 0xE0002018) -- CPU_WriteMem(4 bytes @ 0xE000201C) -- CPU_WriteMem(4 bytes @ 0xE0001004) (0003ms, 21016ms total)
T1D88 27011:858 JLINK_IsHalted()  returns TRUE (0002ms, 21018ms total)
T1D88 27011:860 JLINK_Halt()  returns 0x00 (0000ms, 21016ms total)
T1D88 27011:860 JLINK_IsHalted()  returns TRUE (0000ms, 21016ms total)
T1D88 27011:860 JLINK_IsHalted()  returns TRUE (0000ms, 21016ms total)
T1D88 27011:860 JLINK_IsHalted()  returns TRUE (0000ms, 21016ms total)
T1D88 27011:860 JLINK_ReadReg(R15 (PC))  returns 0x0800019C (0000ms, 21016ms total)
T1D88 27011:860 JLINK_ReadReg(XPSR)  returns 0x61000000 (0000ms, 21016ms total)
T1D88 27011:860 JLINK_ClrBPEx(BPHandle = 0x00000001)  returns 0x00 (0000ms, 21016ms total)
T1D88 27011:861 JLINK_ReadMemU32(0xE000ED30, 0x0001 Items, ...) -- CPU_ReadMem(4 bytes @ 0xE000ED30) - Data: 02 00 00 00  returns 1 (0000ms, 21016ms total)
T1D88 27011:861 JLINK_ReadMemU32(0xE0001028, 0x0001 Items, ...) -- CPU_ReadMem(4 bytes @ 0xE0001028) - Data: 00 00 00 00  returns 1 (0000ms, 21016ms total)
T1D88 27011:861 JLINK_ReadMemU32(0xE0001038, 0x0001 Items, ...) -- CPU_ReadMem(4 bytes @ 0xE0001038) - Data: 00 02 00 00  returns 1 (0001ms, 21017ms total)
T1D88 27011:862 JLINK_ReadMemU32(0xE0001048, 0x0001 Items, ...) -- CPU_ReadMem(4 bytes @ 0xE0001048) - Data: 00 00 00 00  returns 1 (0001ms, 21018ms total)
T1D88 27011:863 JLINK_ReadMemU32(0xE0001058, 0x0001 Items, ...) -- CPU_ReadMem(4 bytes @ 0xE0001058) - Data: 00 00 00 00  returns 1 (0000ms, 21018ms total)
T1D88 27011:863 JLINK_ReadReg(R0)  returns 0x0800019D (0000ms, 21018ms total)
T1D88 27011:863 JLINK_ReadReg(R1)  returns 0x20000E80 (0000ms, 21018ms total)
T1D88 27011:863 JLINK_ReadReg(R2)  returns 0x00000000 (0000ms, 21018ms total)
T1D88 27011:863 JLINK_ReadReg(R3)  returns 0x080067F9 (0000ms, 21018ms total)
T1D88 27011:863 JLINK_ReadReg(R4)  returns 0x080069C0 (0000ms, 21018ms total)
T1D88 27011:863 JLINK_ReadReg(R5)  returns 0x080069C0 (0000ms, 21018ms total)
T1D88 27011:863 JLINK_ReadReg(R6)  returns 0x00000000 (0000ms, 21018ms total)
T1D88 27011:863 JLINK_ReadReg(R7)  returns 0x00000000 (0001ms, 21019ms total)
T1D88 27011:864 JLINK_ReadReg(R8)  returns 0x00000000 (0000ms, 21019ms total)
T1D88 27011:864 JLINK_ReadReg(R9)  returns 0x00000000 (0000ms, 21019ms total)
T1D88 27011:864 JLINK_ReadReg(R10)  returns 0x00000000 (0000ms, 21019ms total)
T1D88 27011:864 JLINK_ReadReg(R11)  returns 0x00000000 (0000ms, 21019ms total)
T1D88 27011:864 JLINK_ReadReg(R12)  returns 0x00000000 (0000ms, 21019ms total)
T1D88 27011:864 JLINK_ReadReg(R13 (SP))  returns 0x20000E80 (0000ms, 21019ms total)
T1D88 27011:864 JLINK_ReadReg(R14)  returns 0x08005D4D (0000ms, 21019ms total)
T1D88 27011:864 JLINK_ReadReg(R15 (PC))  returns 0x0800019C (0000ms, 21019ms total)
T1D88 27011:864 JLINK_ReadReg(XPSR)  returns 0x61000000 (0000ms, 21019ms total)
T1D88 27011:864 JLINK_ReadReg(MSP)  returns 0x20000E80 (0000ms, 21019ms total)
T1D88 27011:864 JLINK_ReadReg(PSP)  returns 0x00000000 (0000ms, 21019ms total)
T1D88 27011:864 JLINK_ReadReg(CFBP)  returns 0x00000000 (0000ms, 21019ms total)
T1D88 27011:864 JLINK_ReadReg(FPSCR)  returns 0x00000000 (0003ms, 21022ms total)
T1D88 27011:867 JLINK_ReadReg(FPS0)  returns 0x00000000 (0000ms, 21022ms total)
T1D88 27011:868 JLINK_ReadReg(FPS1)  returns 0x00000000 (0000ms, 21023ms total)
T1D88 27011:868 JLINK_ReadReg(FPS2)  returns 0x00000000 (0000ms, 21023ms total)
T1D88 27011:868 JLINK_ReadReg(FPS3)  returns 0x00000000 (0000ms, 21023ms total)
T1D88 27011:868 JLINK_ReadReg(FPS4)  returns 0x00000000 (0000ms, 21023ms total)
T1D88 27011:868 JLINK_ReadReg(FPS5)  returns 0x00000000 (0000ms, 21023ms total)
T1D88 27011:868 JLINK_ReadReg(FPS6)  returns 0x00000000 (0000ms, 21023ms total)
T1D88 27011:868 JLINK_ReadReg(FPS7)  returns 0x00000000 (0000ms, 21023ms total)
T1D88 27011:868 JLINK_ReadReg(FPS8)  returns 0x00000000 (0000ms, 21023ms total)
T1D88 27011:868 JLINK_ReadReg(FPS9)  returns 0x00000000 (0000ms, 21023ms total)
T1D88 27011:868 JLINK_ReadReg(FPS10)  returns 0x00000000 (0000ms, 21023ms total)
T1D88 27011:869 JLINK_ReadReg(FPS11)  returns 0x00000000 (0000ms, 21023ms total)
T1D88 27011:869 JLINK_ReadReg(FPS12)  returns 0x00000000 (0000ms, 21023ms total)
T1D88 27011:869 JLINK_ReadReg(FPS13)  returns 0x00000000 (0000ms, 21023ms total)
T1D88 27011:869 JLINK_ReadReg(FPS14)  returns 0x00000000 (0000ms, 21023ms total)
T1D88 27011:869 JLINK_ReadReg(FPS15)  returns 0x00000000 (0000ms, 21023ms total)
T1D88 27011:869 JLINK_ReadReg(FPS16)  returns 0x00000000 (0000ms, 21023ms total)
T1D88 27011:869 JLINK_ReadReg(FPS17)  returns 0x00000000 (0000ms, 21023ms total)
T1D88 27011:869 JLINK_ReadReg(FPS18)  returns 0x00000000 (0000ms, 21023ms total)
T1D88 27011:869 JLINK_ReadReg(FPS19)  returns 0x00000000 (0000ms, 21023ms total)
T1D88 27011:869 JLINK_ReadReg(FPS20)  returns 0x00000000 (0000ms, 21023ms total)
T1D88 27011:869 JLINK_ReadReg(FPS21)  returns 0x00000000 (0001ms, 21024ms total)
T1D88 27011:870 JLINK_ReadReg(FPS22)  returns 0x00000000 (0000ms, 21024ms total)
T1D88 27011:870 JLINK_ReadReg(FPS23)  returns 0x00000000 (0000ms, 21024ms total)
T1D88 27011:870 JLINK_ReadReg(FPS24)  returns 0x00000000 (0000ms, 21024ms total)
T1D88 27011:870 JLINK_ReadReg(FPS25)  returns 0x00000000 (0000ms, 21024ms total)
T1D88 27011:870 JLINK_ReadReg(FPS26)  returns 0x00000000 (0000ms, 21024ms total)
T1D88 27011:870 JLINK_ReadReg(FPS27)  returns 0x00000000 (0000ms, 21024ms total)
T1D88 27011:870 JLINK_ReadReg(FPS28)  returns 0x00000000 (0000ms, 21024ms total)
T1D88 27011:870 JLINK_ReadReg(FPS29)  returns 0x00000000 (0000ms, 21024ms total)
T1D88 27011:870 JLINK_ReadReg(FPS30)  returns 0x00000000 (0001ms, 21025ms total)
T1D88 27011:871 JLINK_ReadReg(FPS31)  returns 0x00000000 (0000ms, 21025ms total)
T384C 27011:951 JLINK_ReadMemEx(0x20000080, 0x0004 Bytes, ..., Flags = 0x02000000) -- CPU_ReadMem(64 bytes @ 0x20000080) -- Updating C cache (64 bytes @ 0x20000080) -- Read from C cache (4 bytes @ 0x20000080) - Data: CD CC CC 3D  returns 0x04 (0001ms, 21026ms total)
T384C 27011:952 JLINK_ReadMemEx(0x2000007C, 0x0004 Bytes, ..., Flags = 0x02000000) -- CPU_ReadMem(64 bytes @ 0x20000040) -- Updating C cache (64 bytes @ 0x20000040) -- Read from C cache (4 bytes @ 0x2000007C) - Data: 9A 99 19 3F  returns 0x04 (0001ms, 21027ms total)
T384C 27012:186 JLINK_ReadMemEx(0x0800019C, 0x003C Bytes, ..., Flags = 0x02000000) -- CPU_ReadMem(128 bytes @ 0x08000180) -- Updating C cache (128 bytes @ 0x08000180) -- Read from C cache (60 bytes @ 0x0800019C) - Data: 01 F0 E7 FE 01 E0 02 F0 0F FF FC E7 70 47 00 BF ...  returns 0x3C (0001ms, 21028ms total)
T384C 27012:187 JLINK_ReadMemEx(0x0800019C, 0x0002 Bytes, ..., Flags = 0x02000000) -- Read from C cache (2 bytes @ 0x0800019C) - Data: 01 F0  returns 0x02 (0000ms, 21028ms total)
T384C 27012:187 JLINK_ReadMemEx(0x0800019E, 0x0002 Bytes, ..., Flags = 0x02000000) -- Read from C cache (2 bytes @ 0x0800019E) - Data: E7 FE  returns 0x02 (0000ms, 21028ms total)
T384C 27017:427 JLINK_SetResetType(JLINKARM_CM3_RESET_TYPE_NORMAL)  returns JLINKARM_CM3_RESET_TYPE_NORMAL (0000ms, 21028ms total)
T384C 27017:427 JLINK_Reset() -- CPU_WriteMem(4 bytes @ 0xE000EDF0) -- CPU_WriteMem(4 bytes @ 0xE000EDFC)Reset: Halt core after reset via DEMCR.VC_CORERESET. >0x35 TIF>Reset: Reset device via AIRCR.SYSRESETREQ. -- CPU_WriteMem(4 bytes @ 0xE000ED0C) >0x0D TIF> >0x28 TIF> -- CPU_ReadMem(4 bytes @ 0xE000EDF0) -- CPU_ReadMem(4 bytes @ 0xE000EDF0) -- CPU_WriteMem(4 bytes @ 0xE000EDF0) -- CPU_WriteMem(4 bytes @ 0xE000EDFC) -- CPU_ReadMem(4 bytes @ 0xE000EDF0) -- CPU_WriteMem(4 bytes @ 0xE0002000)
 -- CPU_ReadMem(4 bytes @ 0xE000EDFC) -- CPU_ReadMem(4 bytes @ 0xE0001000) (0067ms, 21095ms total)
T384C 27017:494 JLINK_ReadReg(R15 (PC))  returns 0x080002E0 (0000ms, 21095ms total)
T384C 27017:494 JLINK_ReadReg(XPSR)  returns 0x01000000 (0000ms, 21095ms total)
T384C 27017:501 JLINK_ReadMemEx(0x080002E0, 0x003C Bytes, ..., Flags = 0x02000000) -- CPU_ReadMem(128 bytes @ 0x080002C0) -- Updating C cache (128 bytes @ 0x080002C0) -- Read from C cache (60 bytes @ 0x080002E0) - Data: 06 48 80 47 06 48 00 47 FE E7 FE E7 FE E7 FE E7 ...  returns 0x3C (0001ms, 21097ms total)
T384C 27017:502 JLINK_ReadMemEx(0x080002E0, 0x0002 Bytes, ..., Flags = 0x02000000) -- Read from C cache (2 bytes @ 0x080002E0) - Data: 06 48  returns 0x02 (0000ms, 21097ms total)
T384C 27017:502 JLINK_ReadMemEx(0x080002E2, 0x0002 Bytes, ..., Flags = 0x02000000) -- Read from C cache (2 bytes @ 0x080002E2) - Data: 80 47  returns 0x02 (0000ms, 21097ms total)
T384C 27017:503 JLINK_ReadMemEx(0x080002E2, 0x0002 Bytes, ..., Flags = 0x02000000) -- Read from C cache (2 bytes @ 0x080002E2) - Data: 80 47  returns 0x02 (0000ms, 21098ms total)
T384C 27017:503 JLINK_ReadMemEx(0x080002E4, 0x003C Bytes, ..., Flags = 0x02000000) -- Read from C cache (60 bytes @ 0x080002E4) - Data: 06 48 00 47 FE E7 FE E7 FE E7 FE E7 FE E7 FE E7 ...  returns 0x3C (0000ms, 21098ms total)
T384C 27017:503 JLINK_ReadMemEx(0x080002E4, 0x0002 Bytes, ..., Flags = 0x02000000) -- Read from C cache (2 bytes @ 0x080002E4) - Data: 06 48  returns 0x02 (0000ms, 21098ms total)
T384C 27017:726 JLINK_ReadReg(R0)  returns 0x00000000 (0000ms, 21098ms total)
T384C 27017:726 JLINK_ReadReg(R1)  returns 0x00000000 (0000ms, 21098ms total)
T384C 27017:726 JLINK_ReadReg(R2)  returns 0x00000000 (0000ms, 21098ms total)
T384C 27017:726 JLINK_ReadReg(R3)  returns 0x00000000 (0000ms, 21098ms total)
T384C 27017:726 JLINK_ReadReg(R4)  returns 0x00000000 (0000ms, 21098ms total)
T384C 27017:726 JLINK_ReadReg(R5)  returns 0x00000000 (0000ms, 21098ms total)
T384C 27017:726 JLINK_ReadReg(R6)  returns 0x00000000 (0000ms, 21098ms total)
T384C 27017:726 JLINK_ReadReg(R7)  returns 0x00000000 (0000ms, 21098ms total)
T384C 27017:726 JLINK_ReadReg(R8)  returns 0x00000000 (0000ms, 21098ms total)
T384C 27017:726 JLINK_ReadReg(R9)  returns 0x00000000 (0000ms, 21098ms total)
T384C 27017:726 JLINK_ReadReg(R10)  returns 0x00000000 (0000ms, 21098ms total)
T384C 27017:726 JLINK_ReadReg(R11)  returns 0x00000000 (0000ms, 21098ms total)
T384C 27017:726 JLINK_ReadReg(R12)  returns 0x00000000 (0001ms, 21099ms total)
T384C 27017:727 JLINK_ReadReg(R13 (SP))  returns 0x20000E80 (0000ms, 21099ms total)
T384C 27017:727 JLINK_ReadReg(R14)  returns 0xFFFFFFFF (0000ms, 21099ms total)
T384C 27017:727 JLINK_ReadReg(R15 (PC))  returns 0x080002E0 (0000ms, 21099ms total)
T384C 27017:727 JLINK_ReadReg(XPSR)  returns 0x01000000 (0000ms, 21099ms total)
T384C 27017:727 JLINK_ReadReg(MSP)  returns 0x20000E80 (0000ms, 21099ms total)
T384C 27017:727 JLINK_ReadReg(PSP)  returns 0x00000000 (0000ms, 21099ms total)
T384C 27017:727 JLINK_ReadReg(CFBP)  returns 0x00000000 (0000ms, 21099ms total)
T384C 27017:727 JLINK_ReadReg(FPSCR)  returns 0x00000000 (0004ms, 21103ms total)
T384C 27017:731 JLINK_ReadReg(FPS0)  returns 0x00000000 (0000ms, 21103ms total)
T384C 27017:731 JLINK_ReadReg(FPS1)  returns 0x00000000 (0000ms, 21103ms total)
T384C 27017:731 JLINK_ReadReg(FPS2)  returns 0x00000000 (0000ms, 21103ms total)
T384C 27017:731 JLINK_ReadReg(FPS3)  returns 0x00000000 (0000ms, 21103ms total)
T384C 27017:731 JLINK_ReadReg(FPS4)  returns 0x00000000 (0000ms, 21103ms total)
T384C 27017:731 JLINK_ReadReg(FPS5)  returns 0x00000000 (0000ms, 21103ms total)
T384C 27017:731 JLINK_ReadReg(FPS6)  returns 0x00000000 (0000ms, 21103ms total)
T384C 27017:731 JLINK_ReadReg(FPS7)  returns 0x00000000 (0000ms, 21103ms total)
T384C 27017:731 JLINK_ReadReg(FPS8)  returns 0x00000000 (0000ms, 21103ms total)
T384C 27017:731 JLINK_ReadReg(FPS9)  returns 0x00000000 (0000ms, 21103ms total)
T384C 27017:731 JLINK_ReadReg(FPS10)  returns 0x00000000 (0000ms, 21103ms total)
T384C 27017:731 JLINK_ReadReg(FPS11)  returns 0x00000000 (0001ms, 21104ms total)
T384C 27017:732 JLINK_ReadReg(FPS12)  returns 0x00000000 (0000ms, 21104ms total)
T384C 27017:732 JLINK_ReadReg(FPS13)  returns 0x00000000 (0000ms, 21104ms total)
T384C 27017:732 JLINK_ReadReg(FPS14)  returns 0x00000000 (0000ms, 21104ms total)
T384C 27017:732 JLINK_ReadReg(FPS15)  returns 0x00000000 (0000ms, 21104ms total)
T384C 27017:732 JLINK_ReadReg(FPS16)  returns 0x00000000 (0000ms, 21104ms total)
T384C 27017:732 JLINK_ReadReg(FPS17)  returns 0x00000000 (0000ms, 21104ms total)
T384C 27017:732 JLINK_ReadReg(FPS18)  returns 0x00000000 (0000ms, 21104ms total)
T384C 27017:732 JLINK_ReadReg(FPS19)  returns 0x00000000 (0000ms, 21104ms total)
T384C 27017:732 JLINK_ReadReg(FPS20)  returns 0x00000000 (0000ms, 21104ms total)
T384C 27017:732 JLINK_ReadReg(FPS21)  returns 0x00000000 (0000ms, 21104ms total)
T384C 27017:732 JLINK_ReadReg(FPS22)  returns 0x00000000 (0000ms, 21104ms total)
T384C 27017:732 JLINK_ReadReg(FPS23)  returns 0x00000000 (0000ms, 21104ms total)
T384C 27017:732 JLINK_ReadReg(FPS24)  returns 0x00000000 (0000ms, 21104ms total)
T384C 27017:732 JLINK_ReadReg(FPS25)  returns 0x00000000 (0000ms, 21104ms total)
T384C 27017:732 JLINK_ReadReg(FPS26)  returns 0x00000000 (0001ms, 21105ms total)
T384C 27017:733 JLINK_ReadReg(FPS27)  returns 0x00000000 (0000ms, 21105ms total)
T384C 27017:733 JLINK_ReadReg(FPS28)  returns 0x00000000 (0000ms, 21105ms total)
T384C 27017:733 JLINK_ReadReg(FPS29)  returns 0x00000000 (0000ms, 21105ms total)
T384C 27017:733 JLINK_ReadReg(FPS30)  returns 0x00000000 (0000ms, 21105ms total)
T384C 27017:733 JLINK_ReadReg(FPS31)  returns 0x00000000 (0000ms, 21105ms total)
T384C 27017:769 JLINK_ReadMemEx(0x20000080, 0x0004 Bytes, ..., Flags = 0x02000000) -- CPU_ReadMem(64 bytes @ 0x20000080) -- Updating C cache (64 bytes @ 0x20000080) -- Read from C cache (4 bytes @ 0x20000080) - Data: CD CC CC 3D  returns 0x04 (0001ms, 21106ms total)
T384C 27017:770 JLINK_ReadMemEx(0x2000007C, 0x0004 Bytes, ..., Flags = 0x02000000) -- CPU_ReadMem(64 bytes @ 0x20000040) -- Updating C cache (64 bytes @ 0x20000040) -- Read from C cache (4 bytes @ 0x2000007C) - Data: 9A 99 19 3F  returns 0x04 (0001ms, 21107ms total)
T1D88 27020:099 JLINK_ReadMemEx(0x080002E0, 0x0002 Bytes, ..., Flags = 0x02000000) -- Read from C cache (2 bytes @ 0x080002E0) - Data: 06 48  returns 0x02 (0000ms, 21107ms total)
T1D88 27020:100 JLINK_Go() -- CPU_ReadMem(4 bytes @ 0xE0001000) -- CPU_WriteMem(4 bytes @ 0xE0002008) -- CPU_WriteMem(4 bytes @ 0xE000200C) -- CPU_WriteMem(4 bytes @ 0xE0002010) -- CPU_WriteMem(4 bytes @ 0xE0002014) -- CPU_WriteMem(4 bytes @ 0xE0002018) -- CPU_WriteMem(4 bytes @ 0xE000201C) -- CPU_WriteMem(4 bytes @ 0xE0001004) (0003ms, 21110ms total)
T1D88 27020:204 JLINK_IsHalted()  returns FALSE (0001ms, 21111ms total)
T1D88 27020:305 JLINK_IsHalted()  returns FALSE (0000ms, 21110ms total)
T1D88 27020:407 JLINK_IsHalted()  returns FALSE (0000ms, 21110ms total)
T1D88 27020:509 JLINK_IsHalted()  returns FALSE (0000ms, 21110ms total)
T1D88 27020:609 JLINK_ReadMemU32(0xE0001004, 0x0001 Items, ...) -- CPU_ReadMem(4 bytes @ 0xE0001004) - Data: 90 FA 11 05  returns 1 (0001ms, 21111ms total)
T384C 27020:666 JLINK_ReadMemEx(0x20000080, 0x0004 Bytes, ..., Flags = 0x02000000) -- CPU_ReadMem(4 bytes @ 0x20000080) - Data: CD CC CC 3D  returns 0x04 (0000ms, 21111ms total)
T384C 27020:666 JLINK_ReadMemEx(0x2000007C, 0x0004 Bytes, ..., Flags = 0x02000000) -- CPU_ReadMem(4 bytes @ 0x2000007C) - Data: 9A 99 19 3F  returns 0x04 (0001ms, 21112ms total)
T1D88 27020:870 JLINK_IsHalted()  returns FALSE (0001ms, 21113ms total)
T1D88 27020:971 JLINK_IsHalted()  returns FALSE (0001ms, 21113ms total)
T1D88 27021:072 JLINK_IsHalted()  returns FALSE (0001ms, 21113ms total)
T1D88 27021:173 JLINK_ReadMemU32(0xE0001004, 0x0001 Items, ...) - Data: 90 FA 11 05  returns 1 (0000ms, 21112ms total)
T384C 27021:222 JLINK_ReadMemEx(0x20000080, 0x0004 Bytes, ..., Flags = 0x02000000) -- CPU_ReadMem(4 bytes @ 0x20000080) - Data: CD CC CC 3D  returns 0x04 (0001ms, 21113ms total)
T384C 27021:223 JLINK_ReadMemEx(0x2000007C, 0x0004 Bytes, ..., Flags = 0x02000000) -- CPU_ReadMem(4 bytes @ 0x2000007C) - Data: 9A 99 19 3F  returns 0x04 (0000ms, 21113ms total)
T1D88 27021:426 JLINK_IsHalted()  returns FALSE (0000ms, 21113ms total)
T1D88 27021:527 JLINK_IsHalted()  returns FALSE (0000ms, 21113ms total)
T1D88 27021:628 JLINK_IsHalted()  returns FALSE (0001ms, 21114ms total)
T1D88 27021:729 JLINK_ReadMemU32(0xE0001004, 0x0001 Items, ...) - Data: 90 FA 11 05  returns 1 (0000ms, 21113ms total)
T384C 27021:775 JLINK_ReadMemEx(0x20000080, 0x0004 Bytes, ..., Flags = 0x02000000) -- CPU_ReadMem(4 bytes @ 0x20000080) - Data: CD CC CC 3D  returns 0x04 (0001ms, 21114ms total)
T384C 27021:776 JLINK_ReadMemEx(0x2000007C, 0x0004 Bytes, ..., Flags = 0x02000000) -- CPU_ReadMem(4 bytes @ 0x2000007C) - Data: 9A 99 19 3F  returns 0x04 (0000ms, 21114ms total)
T1D88 27021:976 JLINK_IsHalted()  returns FALSE (0001ms, 21115ms total)
T1D88 27022:078 JLINK_IsHalted()  returns FALSE (0001ms, 21115ms total)
T1D88 27022:179 JLINK_IsHalted()  returns FALSE (0001ms, 21115ms total)
T1D88 27022:281 JLINK_ReadMemU32(0xE0001004, 0x0001 Items, ...) - Data: 90 FA 11 05  returns 1 (0000ms, 21114ms total)
T384C 27022:335 JLINK_ReadMemEx(0x20000080, 0x0004 Bytes, ..., Flags = 0x02000000) -- CPU_ReadMem(4 bytes @ 0x20000080) - Data: CD CC CC 3D  returns 0x04 (0000ms, 21114ms total)
T384C 27022:335 JLINK_ReadMemEx(0x2000007C, 0x0004 Bytes, ..., Flags = 0x02000000) -- CPU_ReadMem(4 bytes @ 0x2000007C) - Data: 9A 99 19 3F  returns 0x04 (0001ms, 21115ms total)
T1D88 27022:527 JLINK_IsHalted()  returns FALSE (0000ms, 21115ms total)
T1D88 27022:628 JLINK_IsHalted()  returns FALSE (0000ms, 21115ms total)
T1D88 27022:729 JLINK_IsHalted()  returns FALSE (0000ms, 21115ms total)
T1D88 27022:830 JLINK_ReadMemU32(0xE0001004, 0x0001 Items, ...) - Data: 90 FA 11 05  returns 1 (0000ms, 21115ms total)
T384C 27022:878 JLINK_ReadMemEx(0x20000080, 0x0004 Bytes, ..., Flags = 0x02000000) -- CPU_ReadMem(4 bytes @ 0x20000080) - Data: CD CC CC 3D  returns 0x04 (0001ms, 21116ms total)
T384C 27022:879 JLINK_ReadMemEx(0x2000007C, 0x0004 Bytes, ..., Flags = 0x02000000) -- CPU_ReadMem(4 bytes @ 0x2000007C) - Data: 9A 99 19 3F  returns 0x04 (0001ms, 21117ms total)
T1D88 27023:105 JLINK_IsHalted()  returns FALSE (0001ms, 21118ms total)
T1D88 27023:206 JLINK_IsHalted()  returns FALSE (0000ms, 21117ms total)
T1D88 27023:307 JLINK_IsHalted()  returns FALSE (0001ms, 21118ms total)
T1D88 27023:409 JLINK_ReadMemU32(0xE0001004, 0x0001 Items, ...) - Data: 90 FA 11 05  returns 1 (0000ms, 21117ms total)
T384C 27023:454 JLINK_ReadMemEx(0x20000080, 0x0004 Bytes, ..., Flags = 0x02000000) -- CPU_ReadMem(4 bytes @ 0x20000080) - Data: CD CC CC 3D  returns 0x04 (0002ms, 21119ms total)
T384C 27023:456 JLINK_ReadMemEx(0x2000007C, 0x0004 Bytes, ..., Flags = 0x02000000) -- CPU_ReadMem(4 bytes @ 0x2000007C) - Data: 9A 99 19 3F  returns 0x04 (0000ms, 21119ms total)
T1D88 27023:683 JLINK_IsHalted()  returns FALSE (0001ms, 21120ms total)
T1D88 27023:785 JLINK_IsHalted()  returns FALSE (0000ms, 21119ms total)
T1D88 27023:886 JLINK_IsHalted()  returns FALSE (0000ms, 21119ms total)
T1D88 27023:988 JLINK_ReadMemU32(0xE0001004, 0x0001 Items, ...) - Data: 90 FA 11 05  returns 1 (0000ms, 21119ms total)
T384C 27024:045 JLINK_ReadMemEx(0x20000080, 0x0004 Bytes, ..., Flags = 0x02000000) -- CPU_ReadMem(4 bytes @ 0x20000080) - Data: CD CC CC 3D  returns 0x04 (0001ms, 21120ms total)
T384C 27024:046 JLINK_ReadMemEx(0x2000007C, 0x0004 Bytes, ..., Flags = 0x02000000) -- CPU_ReadMem(4 bytes @ 0x2000007C) - Data: 9A 99 19 3F  returns 0x04 (0001ms, 21121ms total)
T1D88 27024:273 JLINK_IsHalted()  returns FALSE (0000ms, 21121ms total)
T1D88 27024:374 JLINK_IsHalted()  returns FALSE (0000ms, 21121ms total)
T1D88 27024:475 JLINK_IsHalted()  returns FALSE (0000ms, 21121ms total)
T1D88 27024:576 JLINK_ReadMemU32(0xE0001004, 0x0001 Items, ...) - Data: 90 FA 11 05  returns 1 (0000ms, 21121ms total)
T384C 27024:622 JLINK_ReadMemEx(0x20000080, 0x0004 Bytes, ..., Flags = 0x02000000) -- CPU_ReadMem(4 bytes @ 0x20000080) - Data: CD CC CC 3D  returns 0x04 (0000ms, 21121ms total)
T384C 27024:622 JLINK_ReadMemEx(0x2000007C, 0x0004 Bytes, ..., Flags = 0x02000000) -- CPU_ReadMem(4 bytes @ 0x2000007C) - Data: 9A 99 19 3F  returns 0x04 (0001ms, 21122ms total)
T1D88 27024:848 JLINK_IsHalted()  returns FALSE (0001ms, 21123ms total)
T1D88 27024:950 JLINK_IsHalted()  returns FALSE (0000ms, 21122ms total)
T1D88 27025:051 JLINK_IsHalted()  returns FALSE (0000ms, 21122ms total)
T1D88 27025:151 JLINK_ReadMemU32(0xE0001004, 0x0001 Items, ...) - Data: 90 FA 11 05  returns 1 (0000ms, 21122ms total)
T384C 27025:195 JLINK_ReadMemEx(0x20000080, 0x0004 Bytes, ..., Flags = 0x02000000) -- CPU_ReadMem(4 bytes @ 0x20000080) - Data: CD CC CC 3D  returns 0x04 (0001ms, 21123ms total)
T384C 27025:196 JLINK_ReadMemEx(0x2000007C, 0x0004 Bytes, ..., Flags = 0x02000000) -- CPU_ReadMem(4 bytes @ 0x2000007C) - Data: 9A 99 19 3F  returns 0x04 (0000ms, 21123ms total)
T1D88 27025:408 JLINK_IsHalted()  returns FALSE (0000ms, 21123ms total)
T1D88 27025:509 JLINK_IsHalted()  returns FALSE (0000ms, 21123ms total)
T1D88 27025:610 JLINK_IsHalted()  returns FALSE (0001ms, 21124ms total)
T1D88 27025:711 JLINK_ReadMemU32(0xE0001004, 0x0001 Items, ...) - Data: 90 FA 11 05  returns 1 (0000ms, 21123ms total)
T384C 27025:760 JLINK_ReadMemEx(0x20000080, 0x0004 Bytes, ..., Flags = 0x02000000) -- CPU_ReadMem(4 bytes @ 0x20000080) - Data: CD CC CC 3D  returns 0x04 (0002ms, 21125ms total)
T384C 27025:762 JLINK_ReadMemEx(0x2000007C, 0x0004 Bytes, ..., Flags = 0x02000000) -- CPU_ReadMem(4 bytes @ 0x2000007C) - Data: 9A 99 19 3F  returns 0x04 (0000ms, 21125ms total)
T1D88 27025:967 JLINK_IsHalted()  returns FALSE (0001ms, 21126ms total)
T1D88 27026:068 JLINK_IsHalted()  returns FALSE (0001ms, 21126ms total)
T1D88 27026:169 JLINK_IsHalted()  returns FALSE (0000ms, 21125ms total)
T1D88 27026:270 JLINK_ReadMemU32(0xE0001004, 0x0001 Items, ...) - Data: 90 FA 11 05  returns 1 (0000ms, 21125ms total)
T384C 27026:320 JLINK_ReadMemEx(0x20000080, 0x0004 Bytes, ..., Flags = 0x02000000) -- CPU_ReadMem(4 bytes @ 0x20000080) - Data: CD CC CC 3D  returns 0x04 (0001ms, 21126ms total)
T384C 27026:321 JLINK_ReadMemEx(0x2000007C, 0x0004 Bytes, ..., Flags = 0x02000000) -- CPU_ReadMem(4 bytes @ 0x2000007C) - Data: 9A 99 19 3F  returns 0x04 (0000ms, 21126ms total)
T1D88 27026:531 JLINK_IsHalted()  returns FALSE (0000ms, 21126ms total)
T1D88 27026:632 JLINK_IsHalted()  returns FALSE (0000ms, 21126ms total)
T1D88 27026:733 JLINK_IsHalted()  returns FALSE (0000ms, 21126ms total)
T1D88 27026:834 JLINK_ReadMemU32(0xE0001004, 0x0001 Items, ...) - Data: 90 FA 11 05  returns 1 (0000ms, 21126ms total)
T384C 27026:882 JLINK_ReadMemEx(0x20000080, 0x0004 Bytes, ..., Flags = 0x02000000) -- CPU_ReadMem(4 bytes @ 0x20000080) - Data: CD CC CC 3D  returns 0x04 (0001ms, 21127ms total)
T384C 27026:883 JLINK_ReadMemEx(0x2000007C, 0x0004 Bytes, ..., Flags = 0x02000000) -- CPU_ReadMem(4 bytes @ 0x2000007C) - Data: 9A 99 19 3F  returns 0x04 (0001ms, 21128ms total)
T1D88 27027:085 JLINK_IsHalted()  returns FALSE (0000ms, 21128ms total)
T1D88 27027:186 JLINK_IsHalted()  returns FALSE (0000ms, 21128ms total)
T1D88 27027:287 JLINK_IsHalted()  returns FALSE (0001ms, 21129ms total)
T1D88 27027:389 JLINK_ReadMemU32(0xE0001004, 0x0001 Items, ...) - Data: 90 FA 11 05  returns 1 (0000ms, 21128ms total)
T384C 27027:434 JLINK_ReadMemEx(0x20000080, 0x0004 Bytes, ..., Flags = 0x02000000) -- CPU_ReadMem(4 bytes @ 0x20000080) - Data: CD CC CC 3D  returns 0x04 (0001ms, 21129ms total)
T384C 27027:435 JLINK_ReadMemEx(0x2000007C, 0x0004 Bytes, ..., Flags = 0x02000000) -- CPU_ReadMem(4 bytes @ 0x2000007C) - Data: 9A 99 19 3F  returns 0x04 (0000ms, 21129ms total)
T1D88 27027:641 JLINK_IsHalted()  returns FALSE (0000ms, 21129ms total)
T1D88 27027:742 JLINK_IsHalted()  returns FALSE (0000ms, 21129ms total)
T1D88 27027:842 JLINK_IsHalted()  returns FALSE (0000ms, 21129ms total)
T1D88 27027:944 JLINK_ReadMemU32(0xE0001004, 0x0001 Items, ...) - Data: 90 FA 11 05  returns 1 (0000ms, 21129ms total)
T384C 27027:988 JLINK_ReadMemEx(0x20000080, 0x0004 Bytes, ..., Flags = 0x02000000) -- CPU_ReadMem(4 bytes @ 0x20000080) - Data: CD CC CC 3D  returns 0x04 (0001ms, 21130ms total)
T384C 27027:989 JLINK_ReadMemEx(0x2000007C, 0x0004 Bytes, ..., Flags = 0x02000000) -- CPU_ReadMem(4 bytes @ 0x2000007C) - Data: 9A 99 19 3F  returns 0x04 (0000ms, 21130ms total)
T1D88 27028:207 JLINK_IsHalted()  returns FALSE (0000ms, 21130ms total)
T1D88 27028:308 JLINK_IsHalted()  returns FALSE (0000ms, 21130ms total)
T1D88 27028:410 JLINK_IsHalted()  returns FALSE (0000ms, 21130ms total)
T1D88 27028:511 JLINK_ReadMemU32(0xE0001004, 0x0001 Items, ...) - Data: 90 FA 11 05  returns 1 (0000ms, 21130ms total)
T384C 27028:550 JLINK_ReadMemEx(0x20000080, 0x0004 Bytes, ..., Flags = 0x02000000) -- CPU_ReadMem(4 bytes @ 0x20000080) - Data: CD CC CC 3D  returns 0x04 (0001ms, 21131ms total)
T384C 27028:551 JLINK_ReadMemEx(0x2000007C, 0x0004 Bytes, ..., Flags = 0x02000000) -- CPU_ReadMem(4 bytes @ 0x2000007C) - Data: 9A 99 19 3F  returns 0x04 (0000ms, 21131ms total)
T1D88 27028:775 JLINK_IsHalted()  returns FALSE (0001ms, 21132ms total)
T1D88 27028:877 JLINK_IsHalted()  returns FALSE (0000ms, 21131ms total)
T1D88 27028:978 JLINK_IsHalted()  returns FALSE (0000ms, 21131ms total)
T1D88 27029:079 JLINK_ReadMemU32(0xE0001004, 0x0001 Items, ...) - Data: 90 FA 11 05  returns 1 (0000ms, 21131ms total)
T384C 27029:138 JLINK_ReadMemEx(0x20000080, 0x0004 Bytes, ..., Flags = 0x02000000) -- CPU_ReadMem(4 bytes @ 0x20000080) - Data: CD CC CC 3D  returns 0x04 (0000ms, 21131ms total)
T384C 27029:138 JLINK_ReadMemEx(0x2000007C, 0x0004 Bytes, ..., Flags = 0x02000000) -- CPU_ReadMem(4 bytes @ 0x2000007C) - Data: 9A 99 19 3F  returns 0x04 (0003ms, 21134ms total)
T1D88 27029:403 JLINK_IsHalted()  returns FALSE (0000ms, 21134ms total)
T1D88 27029:504 JLINK_IsHalted()  returns FALSE (0000ms, 21134ms total)
T1D88 27029:605 JLINK_ReadMemU32(0xE0001004, 0x0001 Items, ...) - Data: 90 FA 11 05  returns 1 (0000ms, 21134ms total)
T384C 27029:656 JLINK_ReadMemEx(0x20000080, 0x0004 Bytes, ..., Flags = 0x02000000) -- CPU_ReadMem(4 bytes @ 0x20000080) - Data: CD CC CC 3D  returns 0x04 (0000ms, 21134ms total)
T384C 27029:657 JLINK_ReadMemEx(0x2000007C, 0x0004 Bytes, ..., Flags = 0x02000000) -- CPU_ReadMem(4 bytes @ 0x2000007C) - Data: 9A 99 19 3F  returns 0x04 (0000ms, 21134ms total)
T1D88 27029:878 JLINK_IsHalted()  returns FALSE (0001ms, 21135ms total)
T1D88 27029:979 JLINK_IsHalted()  returns FALSE (0001ms, 21135ms total)
T1D88 27030:081 JLINK_IsHalted()  returns FALSE (0000ms, 21134ms total)
T384C 27030:153 JLINK_ReadMemEx(0x20000558, 0x0002 Bytes, ..., Flags = 0x02000000) -- CPU_ReadMem(2 bytes @ 0x20000558) - Data: 00 00  returns 0x02 (0001ms, 21135ms total)
T384C 27030:154 JLINK_ReadMemEx(0x2000055A, 0x0002 Bytes, ..., Flags = 0x02000000) -- CPU_ReadMem(2 bytes @ 0x2000055A) - Data: 00 00  returns 0x02 (0000ms, 21135ms total)
T384C 27030:154 JLINK_ReadMemEx(0x2000055C, 0x0001 Bytes, ..., Flags = 0x02000000) -- CPU_ReadMem(1 bytes @ 0x2000055C) - Data: 00  returns 0x01 (0001ms, 21136ms total)
T384C 27030:155 JLINK_ReadMemEx(0x2000055D, 0x0001 Bytes, ..., Flags = 0x02000000) -- CPU_ReadMem(1 bytes @ 0x2000055D) - Data: 00  returns 0x01 (0000ms, 21136ms total)
T384C 27030:155 JLINK_ReadMemEx(0x2000055E, 0x0001 Bytes, ..., Flags = 0x02000000) -- CPU_ReadMem(1 bytes @ 0x2000055E) - Data: 00  returns 0x01 (0001ms, 21137ms total)
T384C 27030:156 JLINK_ReadMemEx(0x2000055F, 0x0001 Bytes, ..., Flags = 0x02000000) -- CPU_ReadMem(1 bytes @ 0x2000055F) - Data: 00  returns 0x01 (0000ms, 21137ms total)
T384C 27030:156 JLINK_ReadMemEx(0x20000560, 0x0001 Bytes, ..., Flags = 0x02000000) -- CPU_ReadMem(1 bytes @ 0x20000560) - Data: 00  returns 0x01 (0001ms, 21138ms total)
T384C 27030:157 JLINK_ReadMemEx(0x20000558, 0x0002 Bytes, ..., Flags = 0x02000000) -- CPU_ReadMem(2 bytes @ 0x20000558) - Data: 00 00  returns 0x02 (0000ms, 21138ms total)
T384C 27030:157 JLINK_ReadMemEx(0x2000055A, 0x0002 Bytes, ..., Flags = 0x02000000) -- CPU_ReadMem(2 bytes @ 0x2000055A) - Data: 00 00  returns 0x02 (0001ms, 21139ms total)
T384C 27030:158 JLINK_ReadMemEx(0x2000055C, 0x0001 Bytes, ..., Flags = 0x02000000) -- CPU_ReadMem(1 bytes @ 0x2000055C) - Data: 00  returns 0x01 (0000ms, 21139ms total)
T384C 27030:159 JLINK_ReadMemEx(0x2000055D, 0x0001 Bytes, ..., Flags = 0x02000000) -- CPU_ReadMem(1 bytes @ 0x2000055D) - Data: 00  returns 0x01 (0000ms, 21139ms total)
T384C 27030:159 JLINK_ReadMemEx(0x2000055E, 0x0001 Bytes, ..., Flags = 0x02000000) -- CPU_ReadMem(1 bytes @ 0x2000055E) - Data: 00  returns 0x01 (0001ms, 21140ms total)
